Index TIME V(0) V(1) V(2) V(3)
0 1e-05 3.99999999849e-05 3.99999999767e-05 3.99999999793e-05 3.9999999973e-05
1 0.0133611214953 0.0534085988864 0.0533889003491 0.0533951271097 0.0533800749712
2 0.0267122429907 0.106562467645 0.106405583538 0.106455131095 0.10633509485
3 0.040063364486 0.15928838496 0.158762055588 0.158928034872 0.15852444272
4 0.0534144859813 0.211375814385 0.210138219111 0.210527673977 0.209575749305
5 0.0667656074766 0.262618221416 0.260225699492 0.260976515337 0.259128895418
6 0.080116728972 0.312814360959 0.308731527988 0.310008373544 0.306839872252
7 0.0934678504673 0.361769525691 0.355381636809 0.357370992527 0.352384454836
8 0.106818971963 0.40929674612 0.399924123524 0.402828462175 0.395461646179
9 0.120170093458 0.455217933544 0.442132244947 0.446163441615 0.435796852406
10 0.133521214953 0.499364957526 0.481807103986 0.487179163225 0.473144752412
11 0.146872336449 0.541580650064 0.518779996661 0.525701194293 0.507291829207
12 0.160223457944 0.58171972917 0.552914390668 0.56157893626 0.538058534217
13 0.173574579439 0.619649635227 0.584107511354 0.594686844798 0.565301060164
14 0.186925700935 0.655251274191 0.612291515763 0.624925357504 0.588912702854
15 0.20027682243 0.68841966239 0.637434240456 0.652221519651 0.608824797115
16 0.213627943925 0.719064468512 0.659539513994 0.676529302227 0.625007217209
17 0.226979065421 0.747110449104 0.678647030311 0.697829610368 0.637468437235
18 0.240330186916 0.772497774809 0.694831784542 0.716129984116 0.646255152289
19 0.253681308411 0.795182245361 0.708203078246 0.731463997306 0.651451466351
20 0.267032429907 0.815135392259 0.718903106176 0.743890364101 0.653177658036
21 0.280383551402 0.832344468911 0.727105141919 0.753491766313 0.651588540308
22 0.293734672897 0.846812328896 0.733011344568 0.760373418085 0.646871435071
23 0.307085794393 0.858557193867 0.736850213242 0.764661387698 0.639243788076
24 0.320436915888 0.867612313482 0.738873720587 0.766500699221 0.628950453775
25 0.333788037383 0.874025520548 0.739354160267 0.76605323935 0.61626068362
26 0.347139158879 0.877858685386 0.738580746982 0.763495497091 0.601464854712
27 0.360490280374 0.879187074206 0.736856010554 0.759016165853 0.584870978695
28 0.373841401869 0.878098616952 0.734492028134 0.752813639101 0.566801033249
29 0.387192523364 0.874693090838 0.731806540573 0.745093431813 0.547587160525
30 0.40054364486 0.869081226339 0.72911900038 0.736065560736 0.527567778264
31 0.413894766355 0.861383743044 0.726746599566 0.725941916686 0.507083650212
32 0.42724588785 0.851730323243 0.725000325881 0.714933662028 0.486473962728
33 0.440597009346 0.840258531579 0.724181095613 0.703248685853 0.466072454219
34 0.453948130841 0.827112689493 0.724576010187 0.691089148414 0.446203643179
35 0.467299252336 0.812442713446 0.726454782283 0.678649144952 0.42717919921
36 0.480650373832 0.796402926201 0.730066375106 0.666112517256 0.409294499499
37 0.494001495327 0.779150850541 0.73563589586 0.653650839193 0.392825410741
38 0.507352616822 0.760845994921 0.743361781356 0.641421599901 0.378025333614
39 0.520703738318 0.741648640542 0.7534133101 0.629566605627 0.36512254354
40 0.534054859813 0.721718639258 0.765928471257 0.618210618117 0.354317857682
41 0.547405981308 0.701214231593 0.781012216488 0.607460244221 0.345782654057
42 0.560757102804 0.680290893904 0.798735115993 0.597403087966 0.339657264192
43 0.574108224299 0.659100223452 0.81913243517 0.588107172777 0.33604975611
44 0.587459345794 0.637788869761 0.842203643133 0.579620637891 0.335035119593
45 0.60081046729 0.616497520234 0.867912359083 0.571971709358 0.33665486067
46 0.614161588785 0.595359947488 0.896186737168 0.565168942361 0.34091700727
47 0.62751271028 0.574502125336 0.926920285107 0.55920172799 0.34779652292
48 0.640863831776 0.554041419715 0.959973106572 0.554041054172 0.357236120379
49 0.654214953271 0.534085860252 0.995173552133 0.54964050709 0.369147462253
50 0.667566074766 0.51473349742 1.03232025858 0.545937496371 0.383412730936
51 0.680917196262 0.49607184954 1.07118455174 0.542854684405 0.399886545779
52 0.694268317757 0.47817744311 1.11151318336 0.540301597615 0.418398201238
53 0.707619439252 0.461115449159 1.15303136872 0.538176395177 0.438754195915
54 0.720970560748 0.444939417535 1.19544608778 0.536367768808 0.46074101901
55 0.734321682243 0.429691110202 1.23844960964 0.534756945645 0.484128157664
56 0.747672803738 0.41540043383 1.28172319714 0.533219765072 0.508671286165
57 0.761023925234 0.40208547113 1.32494094655 0.531628799594 0.534115595925
58 0.774375046729 0.389752609594 1.36777371525 0.529855489475 0.560199223616
59 0.787726168224 0.378396765508 1.40989308964 0.527772260929 0.586656733873
60 0.80107728972 0.368001700345 1.45097534474 0.525254598104 0.613222612496
61 0.814428411215 0.358540425906 1.49070534717 0.522183039983 0.63963472621
62 0.82777953271 0.349975693873 1.52878035387 0.518445074565 0.665637705672
63 0.841130654206 0.342260564798 1.56491366021 0.513936904357 0.690986209606
64 0.854481775701 0.335339050911 1.59883805296 0.508565059144 0.715448029637
65 0.867832897196 0.329146826573 1.63030902608 0.502247834354 0.738806997597
66 0.881184018692 0.323611999725 1.65910771992 0.49491653589 0.760865659738
67 0.894535140187 0.318655937173 1.6850435482 0.486516515172 0.78144768538
68 0.907886261682 0.314194136224 1.70795648059 0.47700798116 0.800399981015
69 0.921237383178 0.310137134829 1.72771895317 0.466366579393 0.817594484718
70 0.934588504673 0.30639145215 1.7442373834 0.454583731392 0.832929619844
71 0.947939626168 0.302860551284 1.75745327128 0.44166673124 0.846331391388
72 0.961290747664 0.299445815762 1.76734387321 0.42763859959 0.85775411294
73 0.974641869159 0.296047531397 1.77392244048 0.412537698828 0.867180756871
74 0.987992990654 0.292565865099 1.77723801945 0.396417116476 0.874622925176
75 1.00134411215 0.288901832355 1.77737481602 0.379343827209 0.88012044318
76 1.01469523364 0.284958245257 1.77445113213 0.361397647001 0.883740583069
77 1.02804635514 0.2806406332 1.76861788741 0.342669995798 0.885576928846
78 1.04139747664 0.27585812866 1.76005674404 0.323262487853 0.885747898791
79 1.05474859813 0.27052431084 1.74897785785 0.30328537124 0.884394945783
80 1.06809971963 0.264558000403 1.73561728306 0.282855840183 0.881680459805
81 1.08145084112 0.257883998962 1.72023406252 0.262096245625 0.87778540067
82 1.09480196262 0.250433767557 1.70310703903 0.241132230846 0.872906692278
83 1.10815308411 0.242146038911 1.68453142652 0.220090820016 0.867254412657
84 1.12150420561 0.232967358857 1.66481518333 0.199098488167 0.861048816475
85 1.1348553271 0.222852553018 1.64427523158 0.178279241362 0.854517228761
86 1.1482064486 0.211765115459 1.62323356902 0.157752735625 0.847890850028
87 1.16155757009 0.199677516752 1.6020133208 0.137632462682 0.841401514039
88 1.17490869159 0.186571429621 1.58093477935 0.118024029564 0.835278439925
89 1.18825981308 0.17243787106 1.56031148074 0.0990235578179 0.829745020307
90 1.20161093458 0.157277260535 1.54044636546 0.0807162263463 0.825015686544
91 1.21496205607 0.141099394637 1.52162807039 0.0631749798678 0.821292891126
92 1.22831317757 0.123923339271 1.50412739739 0.0464594226412 0.818764245677
93 1.24166429907 0.10577724117 1.48819400136 0.0306149144587 0.817599850976
94 1.25501542056 0.0866980612117 1.47405333838 0.0156718830451 0.817949852899
95 1.26836654206 0.0667312326882 1.46190391106 0.0016453639245 0.819942255291
96 1.28171766355 0.0459302483034 1.45191484463 -0.011465224424 0.823681017453
97 1.29506878505 0.0243561802632 1.44422382345 -0.0236760656505 0.829244460327
98 1.30841990654 0.00207713838092 1.43893541293 -0.0350186898138 0.836684001508
99 1.32177102804 -0.0208323283808 1.43611978738 -0.0455394792577 0.846023235094
100 1.33512214953 -0.0442918810533 1.43581187913 -0.0552989419094 0.857257367969
101 1.34847327103 -0.0682160842192 1.43801095947 -0.0643707611753 0.870353019702
102 1.36182439252 -0.0925151373668 1.44268065609 -0.0728406348473 0.885248388625
103 1.37517551402 -0.117095637152 1.44974940706 -0.080804918499 0.901853782101
104 1.38852663551 -0.141861363453 1.45911134555 -0.0883690917218 0.920052504451
105 1.40187775701 -0.166714081964 1.47062760446 -0.0956460681706 0.939702091521
106 1.4152288785 -0.191554355974 1.48412802485 -0.102754372727 0.960635876628
107 1.42858 -0.216282359957 1.49941324747 -0.109816211117 0.982664868465
108 1.4419311215 -0.240798687671 1.51625716146 -0.116955458997 1.00557991772
109 1.45528224299 -0.265005147523 1.53440968052 -0.124295598837 1.02915414562
110 1.46863336449 -0.288805538188 1.55359981245 -0.131957633871 1.0531456044
111 1.48198448598 -0.312106397656 1.57353898454 -0.140058008885 1.07730013683
112 1.49533560748 -0.334817719214 1.59392458417 -0.148706567765 1.1013543996
113 1.50868672897 -0.356853628203 1.61444367136 -0.158004577411 1.12503901329
114 1.52203785047 -0.378133013788 1.63477681789 -0.168042846934 1.14808180023
115 1.53538897196 -0.398580110463 1.65460202603 -0.178899969944 1.17021107051
116 1.54874009346 -0.418125024469 1.6735986791 -0.19064071625 1.19115891584
117 1.56209121495 -0.436704200898 1.69145147565 -0.203314597445 1.21066447093
118 1.57544233645 -0.454260827769 1.70785429898 -0.216954628611 1.22847710262
119 1.58879345794 -0.470745174028 1.72251397514 -0.231576305921 1.24435948781
120 1.60214457944 -0.486114859007 1.73515387323 -0.247176817044 1.25809054275
121 1.61549570093 -0.500335051554 1.74551730418 -0.263734498256 1.26946816814
122 1.62884682243 -0.513378597706 1.75337067665 -0.281208548902 1.27831177678
123 1.64219794393 -0.525226076423 1.7585063714 -0.299539010404 1.28446457323
124 1.65554906542 -0.535865783607 1.76074529918 -0.318647013523 1.28779555812
125 1.66890018692 -0.545293645273 1.75993911098 -0.338435293924 1.28820123292
126 1.68225130841 -0.553513061379 1.75597203372 -0.358788972519 1.28560698499
127 1.69560242991 -0.560534682513 1.74876230902 -0.379576593408 1.27996813647
128 1.7089535514 -0.566376122175 1.73826321754 -0.400651408757 1.27127064462
129 1.7223046729 -0.571061608048 1.72446367662 -0.421852896514 1.25953144572
130 1.73565579439 -0.574621576156 1.7073884038 -0.443008493643 1.24479843875
131 1.74900691589 -0.577092212351 1.68709764446 -0.463935524524 1.22715010945
132 1.76235803738 -0.578514946028 1.66368646702 -0.484443301404 1.20669479989
133 1.77570915888 -0.578935901402 1.63728363424 -0.504335371294 1.18356963268
134 1.78906028037 -0.578405312035 1.60805006469 -0.523411881556 1.15793910326
135 1.80241140187 -0.576976904666 1.57617690313 -0.541472034627 1.12999335753
136 1.81576252336 -0.574707258597 1.54188322344 -0.558316600902 1.09994617588
137 1.82911364486 -0.571655147154 1.50541339235 -0.573750457785 1.06803268814
138 1.84246476636 -0.56788086784 1.4670341261 -0.587585122312 1.03450684697
139 1.85581588785 -0.56344556791 1.42703127605 -0.599641244574 0.999638690043
140 1.86916700935 -0.558410572091 1.38570638264 -0.609751029413 0.963711423958
141 1.88251813084 -0.552836719145 1.34337303967 -0.617760554563 0.927018364409
142 1.89586925234 -0.546783713864 1.30035311344 -0.623531954481 0.889859769066
143 1.90922037383 -0.540309500901 1.25697286289 -0.626945440641 0.852539600503
144 1.92257149533 -0.533469666636 1.21355900811 -0.627901130949 0.815362257226
145 1.93592261682 -0.526316874984 1.17043479527 -0.626320663205 0.778629310995
146 1.94927373832 -0.518900342692 1.12791610591 -0.62214857013 0.742636288398
147 1.96262485981 -0.511265359319 1.08630765813 -0.615353396369 0.707669533805
148 1.97597598131 -0.503452856619 1.04589934608 -0.605928541078 0.674003189722
149 1.9893271028 -0.495499031568 1.00696276221 -0.593892813057 0.641896328875
150 2.0026782243 -0.48743502678 0.969747944838 -0.579290689004 0.611590270356
151 2.01602934579 -0.479286671448 0.934480390599 -0.562192269151 0.58330610976
152 2.02938046729 -0.471074285408 0.901358368183 -0.542692928363 0.557242490467
153 2.04273158879 -0.462812548275 0.870550566025 -0.520912664609 0.533573640184
154 2.05608271028 -0.454510434985 0.842194102582 -0.496995150554 0.512447693507
155 2.06943383178 -0.446171218416 0.816392923381 -0.471106497774 0.493985317724
156 2.08278495327 -0.437792539139 0.793216604245 -0.443433746776 0.478278655324
157 2.09613607477 -0.429366541644 0.772699575214 -0.414183099493 0.465390592803
158 2.10948719626 -0.420880075793 0.754840774475 -0.383577914219 0.455354361408
159 2.12283831776 -0.412314961575 0.739603736385 -0.351856486021 0.448173471455
160 2.13618943925 -0.403648314623 0.726917112386 -0.319269638403 0.443821977862
161 2.14954056075 -0.394852929363 0.716675618287 -0.286078154469 0.442245070644
162 2.16289168224 -0.385897716086 0.708741396217 -0.252550077898 0.443359980287
163 2.17624280374 -0.376748187683 0.702945774478 -0.218957915767 0.447057184258
164 2.18959392523 -0.367366991303 0.699091403673 -0.185575776543 0.453201897487
165 2.20294504673 -0.357714479722 0.696954742903 -0.152676477465 0.461635826393
166 2.21629616822 -0.34774931679 0.69628886555 -0.120528655969 0.472179163143
167 2.22964728972 -0.337429110985 0.696826550282 -0.0893939198164 0.484632794181
168 2.24299841121 -0.326711070777 0.698283619434 -0.0595240701584 0.498780694785
169 2.25634953271 -0.315552675253 0.700362483912 -0.0311584308965 0.51439247952
170 2.26970065421 -0.303912353296 0.702755851258 -0.00452131640534 0.531226076905
171 2.2830517757 -0.291750164421 0.705150551545 0.0201803320129 0.549030495502
172 2.2964028972 -0.279028474385 0.707231434322 0.0427591126621 0.567548647935
173 2.30975401869 -0.265712618608 0.708685289008 0.0630491071345 0.586520199033
174 2.32310514019 -0.251771546567 0.709204740833 0.0809075780762 0.605684404452
175 2.33645626168 -0.237178440404 0.708492074757 0.0962164010309 0.624782906627
176 2.34980738318 -0.221911301223 0.706262940688 0.108883213673 0.64356245589
177 2.36315850467 -0.205953496749 0.702249894775 0.118842269259 0.661777525875
178 2.37650962617 -0.189294264392 0.696205733587 0.126054984822 0.679192794052
179 2.38986074766 -0.171929164064 0.687906580509 0.130510178426 0.695585460237
180 2.40321186916 -0.153860475581 0.677154686749 0.132223993663 0.710747378282
181 2.41656299065 -0.135097535888 0.663780912823 0.131239513475 0.724486978758
182 2.42991411215 -0.115657011926 0.647646860321 0.127626069218 0.736630963323
183 2.44326523364 -0.0955631054682 0.628646628012 0.121478254656 0.747025754491
184 2.45661635514 -0.074847686883 0.60670817097 0.112914658216 0.755538687812
185 2.46996747664 -0.0535503553905 0.581794246234 0.102076330279 0.762058936754
186 2.48331859813 -0.0317184240472 0.553902933579 0.0891250055254 0.76649816406
187 2.49666971963 -0.00940682836232 0.523067725167 0.0742411033189 0.768790896785
188 2.51002084112 0.0133220418574 0.489357183113 0.0576215317782 0.768894625671
189 2.52337196262 0.0363985871369 0.452874169271 0.039477323518 0.766789632936
190 2.53672308411 0.0597463184364 0.413754656784 0.0200311330052 0.762478555817
191 2.55007420561 0.0832822510302 0.372166138015 -0.000485372947859 0.755985696408
192 2.5634253271 0.106917369773 0.328305648432 -0.0218341988679 0.747356091295
193 2.5767764486 0.130557162687 0.28239743069 -0.0437737450543 0.736654357279
194 2.59012757009 0.154102219168 0.234690267518 -0.066061539026 0.723963332002
195 2.60347869159 0.17744888845 0.18545451609 -0.0884569403675 0.70938253056
196 2.61682981308 0.200489993429 0.134978880158 -0.110723785922 0.693026441135
197 2.63018093458 0.223115594332 0.0835669594414 -0.132632943258 0.675022684326
198 2.64353205607 0.245213796277 0.0315336184445 -0.153964741721 0.655510062147
199 2.65688317757 0.266671594247 -0.0207987809056 -0.174511252174 0.634636523625
200 2.67023429907 0.28737574864 -0.0731042367918 -0.194078388658 0.612557074525
201 2.68358542056 0.307213684184 -0.125057008095 -0.212487807707 0.589431658934
202 2.69693654206 0.326074404734 -0.176335510424 -0.229578583807 0.565423040341
203 2.71028766355 0.343849416211 -0.22662616005 -0.245208642561 0.540694709355
204 2.72363878505 0.36043364982 -0.27562711885 -0.259255936382 0.51540884436
205 2.73698990654 0.375726377569 -0.323051894605 -0.271619350985 0.489724350292
206 2.75034102804 0.389632112076 -0.368632752772 -0.282219334534 0.463794999212
207 2.76369214953 0.402061482725 -0.412123898165 -0.290998244989 0.437767694647
208 2.77704327103 0.412932080311 -0.453304387825 -0.297920414869 0.411780879628
209 2.79039439252 0.422169262523 -0.491980739622 -0.302971936378 0.385963106132
210 2.80374551402 0.429706912841 -0.527989204899 -0.306160173468 0.3604317812
211 2.81709663551 0.435488145756 -0.561197677552 -0.307513010918 0.335292102382
212 2.83044775701 0.439465951585 -0.591507216408 -0.307077853916 0.310636192459
213 2.8437988785 0.441603774595 -0.618853162484 -0.30492039477 0.286542440551
214 2.85715 0.441876018658 -0.643205837666 -0.301123166338 0.263075053853
215 2.8705011215 0.440268475186 -0.664570816473 -0.295783904391 0.240283821366
216 2.88385224299 0.436778668709 -0.682988767764 -0.289013743489 0.218204088107
217 2.89720336449 0.431416116101 -0.698534868528 -0.280935272934 0.196856935509
218 2.91055448598 0.424202496122 -0.711317797091 -0.271680481007 0.17624956099
219 2.92390560748 0.415171726681 -0.721478318233 -0.261388616926 0.156375847133
220 2.93725672897 0.404369947959 -0.729187477663 -0.250204000818 0.137217108481
221 2.95060785047 0.391855410275 -0.734644428078 -0.238273812399 0.118743001767
222 2.96395897196 0.377698266395 -0.738073913523 -0.225745889106 0.100912583395
223 2.97731009346 0.361980268725 -0.739723442901 -0.212766563975 0.0836754962599
224 2.99066121495 0.344794372662 -0.739860187316 -0.199478572771 0.0669732664895
225 3.00401233645 0.326244248125 -0.738767639238 -0.186019058676 0.0507406895313
226 3.01736345794 0.30644370208 -0.736742074399 -0.172517701209 0.0349072840774
227 3.03071457944 0.285516015625 -0.73408885972 -0.159094994164 0.0193987917377
228 3.04406570093 0.263593199936 -0.731118652423 -0.145860695049 0.00413870007498
229 3.05741682243 0.240815176047 -0.728143536786 -0.132912465934 -0.0109502333642
230 3.07076794393 0.217328884163 -0.725473145762 -0.120334722836 -0.0259444780716
231 3.08411906542 0.193287328741 -0.72341081482 -0.108197707667 -0.0409182700816
232 3.09747018692 0.168848566235 -0.722249814976 -0.0965567935871 -0.0559422144888
233 3.11082130841 0.144174642852 -0.722269710977 -0.0854520312377 -0.0710819703404
234 3.12417242991 0.119430490176 -0.723732889062 -0.0749079398731 -0.0863970358465
235 3.1375235514 0.0947827868987 -0.726881296645 -0.0649335439395 -0.101939650206
236 3.1508746729 0.0703987952274 -0.731933433614 -0.0555226521659 -0.117753826495
237 3.16422579439 0.0464451808389 -0.739081631925 -0.0466543728105 -0.133874528049
238 3.17757691589 0.0230868254098 -0.748489656552 -0.0382938553869 -0.150326998586
239 3.19092803738 0.00048564090592 -0.760290656977 -0.0303932460221 -0.167126254045
240 3.20427915888 -0.0212006051461 -0.77458549408 -0.0228928406159 -0.184276741754
241 3.21763028037 -0.0418194442018 -0.791441462707 -0.0157224172203 -0.201772170101
242 3.23098140187 -0.0612248319527 -0.810891425339 -0.00880272657304 -0.219595509473
243 3.24433252336 -0.0792782353601 -0.832933367276 -0.00204711754049 -0.237719162805
244 3.25768364486 -0.0958496727827 -0.857530378588 0.00463672762616 -0.256105301712
245 3.27103476636 -0.11081869883 -0.884611062872 0.0113449748117 -0.274706361908
246 3.28438588785 -0.124075325965 -0.914070367649 0.0181757640411 -0.29346568942
247 3.29773700935 -0.135520875322 -0.945770826075 0.025227308402 -0.312318327105
248 3.31108813084 -0.14506874974 -0.979544194645 0.0325959946429 -0.331191929086
249 3.32443925234 -0.152645122572 -1.01519346671 0.0403745141309 -0.350007789075
250 3.33779037383 -0.158189536464 -1.05249523708 0.0486500523656 -0.368681967066
251 3.35114149533 -0.16165540699 -1.09120238869 0.0575025643709 -0.387126497663
252 3.36449261682 -0.163010426732 -1.13104706841 0.0670031620247 -0.405250662317
253 3.37784373832 -0.162236866181 -1.17174391547 0.0772126377565 -0.422962306996
